
T0460 000:138 SEGGER J-Link V4.74 Log File (0015ms, 0149ms total)
T0460 000:138 DLL Compiled: Jul 17 2013 11:46:54 (0015ms, 0149ms total)
T0460 000:138 Logging started @ 2014-09-01 09:41 (0015ms, 0149ms total)
T0460 000:153 JLINK_SetWarnOutHandler(...) (0001ms, 0150ms total)
T0460 000:154 JLINK_OpenEx(...)
Firmware: J-Link ARM V8 compiled Nov 25 2013 19:20:08
Hardware: V8.00
S/N: 270676280
Feature(s): RDI,FlashDL,FlashBP,JFlash,GDBFULL  returns O.K. (0041ms, 0191ms total)
T0460 000:195 JLINK_SetErrorOutHandler(...) (0000ms, 0191ms total)
T0460 000:195 JLINK_ExecCommand("ProjectFile = "C:\Documents and Settings\test-1\×ÀÃæ\DM320-DALI\DM320-DALI code\JLinkSettings.ini"", ...)  returns 0x00 (0021ms, 0212ms total)
T0460 000:225 JLINK_ExecCommand("Device = LPC1114/302", ...)
                JLINK_AddMirrorAreaEx(Addr = 0x00000000, Size = 0x00000000) (0001ms, 0001ms total)
              Device "LPC1114/302" selected (32 KB flash, 8 KB RAM).  returns 0x00 (0010ms, 0222ms total)
T0460 000:235 JLINK_ExecCommand("DisableConnectionTimeout", ...)  returns 0x01 (0000ms, 0222ms total)
T0460 000:235 JLINK_GetHardwareVersion()  returns 0x13880 (0000ms, 0222ms total)
T0460 000:235 JLINK_GetDLLVersion()  returns 47400 (0000ms, 0222ms total)
T0460 000:235 JLINK_GetFirmwareString(...) (0001ms, 0223ms total)
T0460 000:260 JLINK_GetDLLVersion()  returns 47400 (0000ms, 0223ms total)
T0460 000:260 JLINK_GetCompileDateTime() (0001ms, 0224ms total)
T0460 000:264 JLINK_GetFirmwareString(...) (0000ms, 0224ms total)
T0460 000:268 JLINK_GetHardwareVersion()  returns 0x13880 (0000ms, 0225ms total)
T0460 000:292 JLINK_TIF_Select(JLINKARM_TIF_SWD)  returns 0x00 (0010ms, 0235ms total)
T0460 000:302 JLINK_SetSpeed(5000) (0002ms, 0237ms total)
T0460 000:304 JLINK_GetId() >0x108 TIF>Found SWD-DP with ID 0x0BB11477 >0x0D TIF> >0x21 TIF> >0x0D TIF> >0x28 TIF> >0x0D TIF> >0x28 TIF> >0x0D TIF> >0x21 TIF> >0x0D TIF> >0x21 TIF> >0x0D TIF> >0x28 TIF> >0x0D TIF> >0x21 TIF> >0x0D TIF> >0x21 TIF> >0x0D TIF> >0x21 TIF> >0x0D TIF> >0x21 TIF> >0x0D TIF> >0x21 TIF> >0x0D TIF> >0x28 TIF> >0x0D TIF> >0x28 TIF> >0x0D TIF> >0x21 TIF> >0x0D TIF> >0x21 TIF> >0x0D TIF> >0x28 TIF> >0x0D TIF> >0x21 TIF> >0x0D TIF> >0x21 TIF> >0x0D TIF> >0x28 TIF> >0x0D TIF>
 >0x28 TIF> >0x0D TIF> >0x28 TIF> >0x0D TIF> >0x21 TIF> >0x0D TIF> >0x21 TIF> >0x0D TIF> >0x28 TIF> >0x0D TIF> >0x28 TIF> >0x0D TIF> >0x28 TIF> >0x0D TIF> >0x28 TIF> >0x0D TIF> >0x28 TIF> >0x0D TIF> >0x21 TIF> >0x0D TIF> >0x21 TIF> >0x0D TIF> >0x21 TIF> >0x0D TIF> >0x28 TIF> >0x0D TIF> >0x21 TIF> >0x0D TIF> >0x21 TIF> >0x0D TIF> >0x28 TIF> >0x0D TIF> >0x21 TIF> >0x0D TIF> >0x21 TIF>FPUnit: 4 code (BP) slots and 0 literal slots >0x0D TIF> >0x28 TIF> >0x0D TIF> >0x21 TIF> >0x0D TIF> >0x21 TIF> >0x0D TIF>
 >0x28 TIF> >0x0D TIF> >0x28 TIF> >0x0D TIF> >0x28 TIF> >0x0D TIF> >0x21 TIF> >0x0D TIF> >0x21 TIF> >0x0D TIF> >0x28 TIF> >0x0D TIF> >0x21 TIF> >0x0D TIF> >0x21 TIF> >0x0D TIF> >0x28 TIF> >0x0D TIF> >0x21 TIF> >0x0D TIF> >0x21 TIF>Found Cortex-M0 r0p0, Little endian. >0x0D TIF> >0x21 TIF>  returns 0x0BB11477 (0255ms, 0492ms total)
T0460 000:559 JLINK_GetDeviceFamily()  returns 6 (0000ms, 0492ms total)
T0460 000:567 JLINK_ReadMem (0xE00FFFF0, 0x0010 Bytes, ...) -- CPU is running -- CPU_ReadMem(16 bytes @ 0xE00FFFF0) -- Data:  0D 00 00 00 10 00 00 00 05 00 00 00 B1 00 00 00  returns 0x00 (0004ms, 0496ms total)
T0460 000:571 JLINK_ReadMem (0xE00FFFD0, 0x0020 Bytes, ...) -- CPU is running -- CPU_ReadMem(32 bytes @ 0xE00FFFD0) -- Data:  04 00 00 00 00 00 00 00 00 00 00 00 00 00 00 00 ...  returns 0x00 (0002ms, 0498ms total)
T0460 000:573 JLINK_ReadMem (0xE00FF000, 0x0018 Bytes, ...) -- CPU is running -- CPU_ReadMem(24 bytes @ 0xE00FF000) -- Data:  03 F0 F0 FF 03 20 F0 FF 03 30 F0 FF 00 00 00 00 ...  returns 0x00 (0004ms, 0502ms total)
T0460 000:577 JLINK_ReadMemU32(0xE000ED00, 0x0001 Items, ...) -- CPU is running -- CPU_ReadMem(4 bytes @ 0xE000ED00) -- Data:  00 C2 0C 41  returns 0x01 (0003ms, 0505ms total)
T0460 000:580 JLINK_SetResetType(JLINKARM_RESET_TYPE_NORMAL)  returns JLINKARM_RESET_TYPE_NORMAL (0000ms, 0505ms total)
T0460 000:580 JLINK_Reset() -- CPU is running -- CPU_WriteMem(4 bytes @ 0xE000EDF0) -- CPU is running -- CPU_WriteMem(4 bytes @ 0xE000EDFC) >0x35 TIF> -- CPU is running -- CPU_WriteMem(4 bytes @ 0xE000ED0C) -- CPU is running -- CPU_ReadMem(4 bytes @ 0xE000EDF0) -- CPU is running -- CPU_ReadMem(4 bytes @ 0xE000EDF0) -- CPU is running -- CPU_WriteMem(4 bytes @ 0xE000EDF0) -- CPU is running -- CPU_WriteMem(4 bytes @ 0xE000EDFC) -- CPU is running -- CPU_ReadMem(4 bytes @ 0xE000EDF0)
 -- CPU_WriteMem(4 bytes @ 0xE000EDFC) -- CPU_WriteMem(4 bytes @ 0xE000EDFC) -- CPU_WriteMem(4 bytes @ 0xE000EDFC) -- CPU_WriteMem(4 bytes @ 0xE0001020) -- CPU_WriteMem(4 bytes @ 0xE0001024) -- CPU_WriteMem(4 bytes @ 0xE0001028) -- CPU_WriteMem(4 bytes @ 0xE000EDFC) -- CPU_WriteMem(4 bytes @ 0xE0001028) -- CPU_ReadMem(4 bytes @ 0x00000004) -- CPU_ReadMem(4 bytes @ 0xE0002000) -- CPU_ReadMem(4 bytes @ 0xE0002008) -- CPU_ReadMem(4 bytes @ 0xE000200C) -- CPU_ReadMem(4 bytes @ 0xE0002010)
 -- CPU_ReadMem(4 bytes @ 0xE0002014) -- CPU_WriteMem(4 bytes @ 0xE0002000) -- CPU_WriteMem(4 bytes @ 0xE0002008) -- CPU_WriteMem(4 bytes @ 0xE000200C) -- CPU_WriteMem(4 bytes @ 0xE0002010) -- CPU_WriteMem(4 bytes @ 0xE0002014)
                JLINK_ReadMemHW(0x40048000, 0x0004 Bytes, ...) -- CPU_ReadMem(4 bytes @ 0x40048000) -- Data:  02 00 00 00  returns 0x00 (0004ms, 0004ms total)
               -- MA0 is in flash -- Unmirror addr 0x00000168 -- CPU_WriteMem(4 bytes @ 0xE0002000) -- CPU_WriteMem(4 bytes @ 0xE0002008) -- CPU_WriteMem(4 bytes @ 0xE000200C) -- CPU_WriteMem(4 bytes @ 0xE0002010) -- CPU_WriteMem(4 bytes @ 0xE0002014) -- CPU_WriteMem(4 bytes @ 0xE0002000) (0318ms, 0823ms total)
T0460 000:898 JLINK_Halt()  returns 0x00 (0000ms, 0823ms total)
T0460 000:898 JLINK_IsHalted() -- Unmirror addr 0x00000168  returns TRUE (0001ms, 0824ms total)
T0460 000:899 JLINK_ReadMemU32(0xE000EDF0, 0x0001 Items, ...) -- CPU_ReadMem(4 bytes @ 0xE000EDF0) -- Data:  03 00 03 00  returns 0x01 (0002ms, 0825ms total)
T0460 000:901 JLINK_WriteU32(0xE000EDF0, 0xA05F0003) -- CPU_WriteMem(4 bytes @ 0xE000EDF0) -- Invalidate MA0 status  returns 0x00 (0003ms, 0828ms total)
T0460 000:904 JLINK_WriteU32(0xE000EDFC, 0x01000000) -- CPU_WriteMem(4 bytes @ 0xE000EDFC)  returns 0x00 (0002ms, 0830ms total)
T0460 000:937 JLINK_GetHWStatus(...)  returns 0x00 (0003ms, 0833ms total)
T0460 000:960 JLINK_GetNumBPUnits(Type = 0xFFFFFF00)  returns 0x04 (0000ms, 0833ms total)
T0460 000:960 JLINK_GetNumBPUnits(Type = 0xF0)  returns 0x2000 (0000ms, 0833ms total)
T0460 000:960 JLINK_GetNumWPUnits()  returns 0x02 (0000ms, 0833ms total)
T0460 000:981 JLINK_GetSpeed()  returns 0xFA0 (0000ms, 0833ms total)
T0460 000:996 JLINK_ReadMemU32(0xE000E004, 0x0001 Items, ...) -- CPU_ReadMem(4 bytes @ 0xE000E004) -- Data:  00 00 00 00  returns 0x01 (0004ms, 0837ms total)
T0460 001:000 JLINK_Halt()  returns 0x00 (0000ms, 0837ms total)
T0460 001:000 JLINK_IsHalted()
                JLINK_ReadMemHW(0x40048000, 0x0004 Bytes, ...) -- CPU_ReadMem(4 bytes @ 0x40048000) -- Data:  02 00 00 00  returns 0x00 (0004ms, 0004ms total)
               -- MA0 is in flash -- Unmirror addr 0x00000168  returns TRUE (0004ms, 0841ms total)
T0460 001:072 JLINK_WriteMem(0x10000000, 0x0170 Bytes, ...) -- Data:  00 BE 0A E0 0D 78 2D 06 68 40 08 24 40 00 00 D3 ... -- CPU_WriteMem(368 bytes @ 0x10000000)  returns 0x170 (0007ms, 0844ms total)
T0460 001:079 JLINK_WriteReg(R0, 0x00000000)  returns 0x00 (0000ms, 0844ms total)
T0460 001:079 JLINK_WriteReg(R1, 0x00B71B00)  returns 0x00 (0000ms, 0844ms total)
T0460 001:079 JLINK_WriteReg(R2, 0x00000001)  returns 0x00 (0000ms, 0844ms total)
T0460 001:079 JLINK_WriteReg(R3, 0x00000000)  returns 0x00 (0000ms, 0844ms total)
T0460 001:079 JLINK_WriteReg(R4, 0x00000000)  returns 0x00 (0000ms, 0844ms total)
T0460 001:079 JLINK_WriteReg(R5, 0x00000000)  returns 0x00 (0001ms, 0845ms total)
T0460 001:080 JLINK_WriteReg(R6, 0x00000000)  returns 0x00 (0000ms, 0845ms total)
T0460 001:080 JLINK_WriteReg(R7, 0x00000000)  returns 0x00 (0000ms, 0845ms total)
T0460 001:080 JLINK_WriteReg(R8, 0x00000000)  returns 0x00 (0000ms, 0845ms total)
T0460 001:080 JLINK_WriteReg(R9, 0x10000168)  returns 0x00 (0000ms, 0845ms total)
T0460 001:080 JLINK_WriteReg(R10, 0x00000000)  returns 0x00 (0000ms, 0845ms total)
T0460 001:080 JLINK_WriteReg(R11, 0x00000000)  returns 0x00 (0000ms, 0845ms total)
T0460 001:080 JLINK_WriteReg(R12, 0x00000000)  returns 0x00 (0000ms, 0845ms total)
T0460 001:081 JLINK_WriteReg(R13 (SP), 0x10000800)  returns 0x00 (0000ms, 0846ms total)
T0460 001:081 JLINK_WriteReg(R14, 0x10000001)  returns 0x00 (0000ms, 0846ms total)
T0460 001:081 JLINK_WriteReg(R15 (PC), 0x1000003C)  returns 0x00 (0000ms, 0846ms total)
T0460 001:081 JLINK_WriteReg(XPSR, 0x01000000)  returns 0x00 (0000ms, 0846ms total)
T0460 001:081 JLINK_WriteReg(MSP, 0x10000800)  returns 0x00 (0000ms, 0846ms total)
T0460 001:081 JLINK_WriteReg(PSP, 0x10000800)  returns 0x00 (0000ms, 0846ms total)
T0460 001:081 JLINK_WriteReg(CFBP, 0x00000000)  returns 0x00 (0001ms, 0847ms total)
T0460 001:082 JLINK_SetBPEx(Addr = 0x10000000, Type = 0xFFFFFFF2)  returns 0x00000001 (0000ms, 0847ms total)
T0460 001:082 JLINK_Go() -- Invalidate MA0 status -- CPU_WriteMem(4 bytes @ 0xE0002008) -- CPU_WriteMem(4 bytes @ 0xE000200C) -- CPU_WriteMem(4 bytes @ 0xE0002010) -- CPU_WriteMem(4 bytes @ 0xE0002014) (0015ms, 0862ms total)
T0460 001:097 JLINK_IsHalted()  returns TRUE (0006ms, 0868ms total)
T0460 001:103 JLINK_ReadReg(R15 (PC))  returns 0x10000000 (0000ms, 0862ms total)
T0460 001:103 JLINK_ClrBPEx(BPHandle = 0x00000001)  returns 0x00 (0000ms, 0862ms total)
T0460 001:103 JLINK_ReadReg(R0)  returns 0x00000000 (0001ms, 0863ms total)
T0460 001:105 JLINK_WriteReg(R0, 0x00000000)  returns 0x00 (0000ms, 0863ms total)
T0460 001:105 JLINK_WriteReg(R1, 0x00001000)  returns 0x00 (0000ms, 0863ms total)
T0460 001:105 JLINK_WriteReg(R2, 0x000000FF)  returns 0x00 (0000ms, 0863ms total)
T0460 001:105 JLINK_WriteReg(R3, 0x00000000)  returns 0x00 (0001ms, 0864ms total)
T0460 001:106 JLINK_WriteReg(R4, 0x00000000)  returns 0x00 (0000ms, 0864ms total)
T0460 001:106 JLINK_WriteReg(R5, 0x00000000)  returns 0x00 (0000ms, 0864ms total)
T0460 001:106 JLINK_WriteReg(R6, 0x00000000)  returns 0x00 (0000ms, 0864ms total)
T0460 001:106 JLINK_WriteReg(R7, 0x00000000)  returns 0x00 (0000ms, 0864ms total)
T0460 001:106 JLINK_WriteReg(R8, 0x00000000)  returns 0x00 (0000ms, 0864ms total)
T0460 001:106 JLINK_WriteReg(R9, 0x10000168)  returns 0x00 (0000ms, 0864ms total)
T0460 001:106 JLINK_WriteReg(R10, 0x00000000)  returns 0x00 (0001ms, 0865ms total)
T0460 001:107 JLINK_WriteReg(R11, 0x00000000)  returns 0x00 (0000ms, 0865ms total)
T0460 001:107 JLINK_WriteReg(R12, 0x00000000)  returns 0x00 (0000ms, 0865ms total)
T0460 001:107 JLINK_WriteReg(R13 (SP), 0x10000800)  returns 0x00 (0000ms, 0865ms total)
T0460 001:107 JLINK_WriteReg(R14, 0x10000001)  returns 0x00 (0000ms, 0865ms total)
T0460 001:107 JLINK_WriteReg(R15 (PC), 0x10000020)  returns 0x00 (0000ms, 0865ms total)
T0460 001:107 JLINK_WriteReg(XPSR, 0x01000000)  returns 0x00 (0000ms, 0865ms total)
T0460 001:107 JLINK_WriteReg(MSP, 0x10000800)  returns 0x00 (0001ms, 0866ms total)
T0460 001:108 JLINK_WriteReg(PSP, 0x10000800)  returns 0x00 (0000ms, 0866ms total)
T0460 001:108 JLINK_WriteReg(CFBP, 0x00000000)  returns 0x00 (0000ms, 0866ms total)
T0460 001:108 JLINK_SetBPEx(Addr = 0x10000000, Type = 0xFFFFFFF2)  returns 0x00000002 (0000ms, 0866ms total)
T0460 001:108 JLINK_Go() (0005ms, 0871ms total)
T0460 001:113 JLINK_IsHalted()  returns TRUE (0006ms, 0877ms total)
T0460 001:119 JLINK_ReadReg(R15 (PC))  returns 0x10000000 (0000ms, 0871ms total)
T0460 001:119 JLINK_ClrBPEx(BPHandle = 0x00000002)  returns 0x00 (0000ms, 0871ms total)
T0460 001:119 JLINK_ReadReg(R0)  returns 0x00000001 (0000ms, 0871ms total)
T0460 001:119 JLINK_WriteReg(R0, 0x00000000)  returns 0x00 (0001ms, 0872ms total)
T0460 001:120 JLINK_WriteReg(R1, 0x00001000)  returns 0x00 (0000ms, 0872ms total)
T0460 001:120 JLINK_WriteReg(R2, 0x000000FF)  returns 0x00 (0000ms, 0872ms total)
T0460 001:120 JLINK_WriteReg(R3, 0x00000000)  returns 0x00 (0000ms, 0872ms total)
T0460 001:120 JLINK_WriteReg(R4, 0x00000000)  returns 0x00 (0000ms, 0872ms total)
T0460 001:120 JLINK_WriteReg(R5, 0x00000000)  returns 0x00 (0000ms, 0872ms total)
T0460 001:120 JLINK_WriteReg(R6, 0x00000000)  returns 0x00 (0001ms, 0873ms total)
T0460 001:121 JLINK_WriteReg(R7, 0x00000000)  returns 0x00 (0000ms, 0873ms total)
T0460 001:121 JLINK_WriteReg(R8, 0x00000000)  returns 0x00 (0000ms, 0873ms total)
T0460 001:121 JLINK_WriteReg(R9, 0x10000168)  returns 0x00 (0000ms, 0873ms total)
T0460 001:121 JLINK_WriteReg(R10, 0x00000000)  returns 0x00 (0000ms, 0873ms total)
T0460 001:121 JLINK_WriteReg(R11, 0x00000000)  returns 0x00 (0000ms, 0873ms total)
T0460 001:121 JLINK_WriteReg(R12, 0x00000000)  returns 0x00 (0000ms, 0873ms total)
T0460 001:121 JLINK_WriteReg(R13 (SP), 0x10000800)  returns 0x00 (0001ms, 0874ms total)
T0460 001:122 JLINK_WriteReg(R14, 0x10000001)  returns 0x00 (0000ms, 0874ms total)
T0460 001:122 JLINK_WriteReg(R15 (PC), 0x100000A4)  returns 0x00 (0000ms, 0874ms total)
T0460 001:122 JLINK_WriteReg(XPSR, 0x01000000)  returns 0x00 (0000ms, 0874ms total)
T0460 001:122 JLINK_WriteReg(MSP, 0x10000800)  returns 0x00 (0000ms, 0874ms total)
T0460 001:122 JLINK_WriteReg(PSP, 0x10000800)  returns 0x00 (0000ms, 0874ms total)
T0460 001:122 JLINK_WriteReg(CFBP, 0x00000000)  returns 0x00 (0000ms, 0874ms total)
T0460 001:122 JLINK_SetBPEx(Addr = 0x10000000, Type = 0xFFFFFFF2)  returns 0x00000003 (0001ms, 0875ms total)
T0460 001:123 JLINK_Go() (0005ms, 0880ms total)
T0460 001:128 JLINK_IsHalted()  returns FALSE (0002ms, 0882ms total)
T0460 001:321 JLINK_ReadReg(R0)  returns 0x00000000 (0006ms, 0886ms total)
T0460 001:327 JLINK_ReadReg(R1)  returns 0x4003C000 (0000ms, 0886ms total)
T0460 001:327 JLINK_ReadReg(R2)  returns 0xFFFFFFFF (0000ms, 0886ms total)
T0460 001:327 JLINK_ReadReg(R3)  returns 0x00000000 (0000ms, 0886ms total)
T0460 001:327 JLINK_ReadReg(R4)  returns 0x00000000 (0000ms, 0886ms total)
T0460 001:327 JLINK_ReadReg(R5)  returns 0x00000000 (0000ms, 0886ms total)
T0460 001:327 JLINK_ReadReg(R6)  returns 0x00000000 (0000ms, 0886ms total)
T0460 001:327 JLINK_ReadReg(R7)  returns 0x00000000 (0001ms, 0887ms total)
T0460 001:328 JLINK_ReadReg(R8)  returns 0x00000000 (0000ms, 0887ms total)
T0460 001:328 JLINK_ReadReg(R9)  returns 0x10000168 (0000ms, 0887ms total)
T0460 001:328 JLINK_ReadReg(R10)  returns 0x00000000 (0000ms, 0887ms total)
T0460 001:328 JLINK_ReadReg(R11)  returns 0x00000000 (0000ms, 0887ms total)
T0460 001:328 JLINK_ReadReg(R12)  returns 0x00000000 (0000ms, 0887ms total)
T0460 001:328 JLINK_ReadReg(R13 (SP))  returns 0x10000800 (0000ms, 0887ms total)
T0460 001:328 JLINK_ReadReg(R14)  returns 0x1FFF0319 (0000ms, 0887ms total)
T0460 001:329 JLINK_ReadReg(R15 (PC))  returns 0x10000000 (0000ms, 0888ms total)
T0460 001:329 JLINK_ReadReg(XPSR)  returns 0x61000000 (0000ms, 0888ms total)
T0460 001:329 JLINK_ReadReg(MSP)  returns 0x10000800 (0000ms, 0888ms total)
T0460 001:329 JLINK_ReadReg(PSP)  returns 0x10000800 (0000ms, 0888ms total)
T0460 001:329 JLINK_ReadReg(CFBP)  returns 0x00000000 (0000ms, 0888ms total)
T0460 001:425 JLINK_IsHalted()  returns TRUE (0000ms, 0888ms total)
T0460 001:425 JLINK_ReadReg(R15 (PC))  returns 0x10000000 (0000ms, 0888ms total)
T0460 001:425 JLINK_ClrBPEx(BPHandle = 0x00000003)  returns 0x00 (0000ms, 0888ms total)
T0460 001:425 JLINK_ReadReg(R0)  returns 0x00000000 (0000ms, 0888ms total)
T0460 001:426 JLINK_WriteReg(R0, 0x00001000)  returns 0x00 (0001ms, 0889ms total)
T0460 001:427 JLINK_WriteReg(R1, 0x00001000)  returns 0x00 (0000ms, 0889ms total)
T0460 001:427 JLINK_WriteReg(R2, 0x000000FF)  returns 0x00 (0001ms, 0890ms total)
T0460 001:428 JLINK_WriteReg(R3, 0x00000000)  returns 0x00 (0000ms, 0890ms total)
T0460 001:428 JLINK_WriteReg(R4, 0x00000000)  returns 0x00 (0000ms, 0890ms total)
T0460 001:428 JLINK_WriteReg(R5, 0x00000000)  returns 0x00 (0000ms, 0890ms total)
T0460 001:428 JLINK_WriteReg(R6, 0x00000000)  returns 0x00 (0000ms, 0890ms total)
T0460 001:428 JLINK_WriteReg(R7, 0x00000000)  returns 0x00 (0001ms, 0891ms total)
T0460 001:429 JLINK_WriteReg(R8, 0x00000000)  returns 0x00 (0000ms, 0891ms total)
T0460 001:429 JLINK_WriteReg(R9, 0x10000168)  returns 0x00 (0000ms, 0891ms total)
T0460 001:429 JLINK_WriteReg(R10, 0x00000000)  returns 0x00 (0000ms, 0891ms total)
T0460 001:429 JLINK_WriteReg(R11, 0x00000000)  returns 0x00 (0001ms, 0892ms total)
T0460 001:430 JLINK_WriteReg(R12, 0x00000000)  returns 0x00 (0000ms, 0892ms total)
T0460 001:430 JLINK_WriteReg(R13 (SP), 0x10000800)  returns 0x00 (0000ms, 0892ms total)
T0460 001:430 JLINK_WriteReg(R14, 0x10000001)  returns 0x00 (0000ms, 0892ms total)
T0460 001:430 JLINK_WriteReg(R15 (PC), 0x10000020)  returns 0x00 (0000ms, 0892ms total)
T0460 001:430 JLINK_WriteReg(XPSR, 0x01000000)  returns 0x00 (0001ms, 0893ms total)
T0460 001:431 JLINK_WriteReg(MSP, 0x10000800)  returns 0x00 (0000ms, 0893ms total)
T0460 001:431 JLINK_WriteReg(PSP, 0x10000800)  returns 0x00 (0000ms, 0893ms total)
T0460 001:431 JLINK_WriteReg(CFBP, 0x00000000)  returns 0x00 (0000ms, 0893ms total)
T0460 001:431 JLINK_SetBPEx(Addr = 0x10000000, Type = 0xFFFFFFF2)  returns 0x00000004 (0000ms, 0893ms total)
T0460 001:431 JLINK_Go() (0005ms, 0898ms total)
T0460 001:436 JLINK_IsHalted()  returns TRUE (0006ms, 0904ms total)
T0460 001:442 JLINK_ReadReg(R15 (PC))  returns 0x10000000 (0000ms, 0898ms total)
T0460 001:442 JLINK_ClrBPEx(BPHandle = 0x00000004)  returns 0x00 (0001ms, 0899ms total)
T0460 001:443 JLINK_ReadReg(R0)  returns 0x00000001 (0000ms, 0899ms total)
T0460 001:444 JLINK_WriteReg(R0, 0x00001000)  returns 0x00 (0003ms, 0902ms total)
T0460 001:447 JLINK_WriteReg(R1, 0x00001000)  returns 0x00 (0000ms, 0902ms total)
T0460 001:447 JLINK_WriteReg(R2, 0x000000FF)  returns 0x00 (0000ms, 0902ms total)
T0460 001:447 JLINK_WriteReg(R3, 0x00000000)  returns 0x00 (0000ms, 0902ms total)
T0460 001:447 JLINK_WriteReg(R4, 0x00000000)  returns 0x00 (0000ms, 0902ms total)
T0460 001:447 JLINK_WriteReg(R5, 0x00000000)  returns 0x00 (0000ms, 0902ms total)
T0460 001:447 JLINK_WriteReg(R6, 0x00000000)  returns 0x00 (0000ms, 0902ms total)
T0460 001:447 JLINK_WriteReg(R7, 0x00000000)  returns 0x00 (0001ms, 0903ms total)
T0460 001:448 JLINK_WriteReg(R8, 0x00000000)  returns 0x00 (0000ms, 0903ms total)
T0460 001:448 JLINK_WriteReg(R9, 0x10000168)  returns 0x00 (0000ms, 0903ms total)
T0460 001:448 JLINK_WriteReg(R10, 0x00000000)  returns 0x00 (0000ms, 0903ms total)
T0460 001:448 JLINK_WriteReg(R11, 0x00000000)  returns 0x00 (0001ms, 0904ms total)
T0460 001:449 JLINK_WriteReg(R12, 0x00000000)  returns 0x00 (0000ms, 0904ms total)
T0460 001:449 JLINK_WriteReg(R13 (SP), 0x10000800)  returns 0x00 (0000ms, 0904ms total)
T0460 001:449 JLINK_WriteReg(R14, 0x10000001)  returns 0x00 (0000ms, 0904ms total)
T0460 001:449 JLINK_WriteReg(R15 (PC), 0x100000A4)  returns 0x00 (0000ms, 0904ms total)
T0460 001:449 JLINK_WriteReg(XPSR, 0x01000000)  returns 0x00 (0001ms, 0905ms total)
T0460 001:450 JLINK_WriteReg(MSP, 0x10000800)  returns 0x00 (0000ms, 0905ms total)
T0460 001:450 JLINK_WriteReg(PSP, 0x10000800)  returns 0x00 (0000ms, 0905ms total)
T0460 001:450 JLINK_WriteReg(CFBP, 0x00000000)  returns 0x00 (0000ms, 0905ms total)
T0460 001:450 JLINK_SetBPEx(Addr = 0x10000000, Type = 0xFFFFFFF2)  returns 0x00000005 (0000ms, 0905ms total)
T0460 001:450 JLINK_Go() (0008ms, 0913ms total)
T0460 001:458 JLINK_IsHalted()  returns FALSE (0005ms, 0918ms total)
T0460 001:505 JLINK_IsHalted()  returns FALSE (0003ms, 0916ms total)
T0460 001:519 JLINK_IsHalted()  returns FALSE (0002ms, 0915ms total)
T0460 001:551 JLINK_IsHalted()  returns FALSE (0003ms, 0916ms total)
T0460 001:564 JLINK_IsHalted()  returns TRUE (0006ms, 0919ms total)
T0460 001:570 JLINK_ReadReg(R15 (PC))  returns 0x10000000 (0001ms, 0914ms total)
T0460 001:571 JLINK_ClrBPEx(BPHandle = 0x00000005)  returns 0x00 (0000ms, 0914ms total)
T0460 001:571 JLINK_ReadReg(R0)  returns 0x00000000 (0000ms, 0914ms total)
T0460 001:572 JLINK_WriteReg(R0, 0x00002000)  returns 0x00 (0000ms, 0914ms total)
T0460 001:572 JLINK_WriteReg(R1, 0x00001000)  returns 0x00 (0000ms, 0914ms total)
T0460 001:572 JLINK_WriteReg(R2, 0x000000FF)  returns 0x00 (0000ms, 0914ms total)
T0460 001:572 JLINK_WriteReg(R3, 0x00000000)  returns 0x00 (0000ms, 0914ms total)
T0460 001:572 JLINK_WriteReg(R4, 0x00000000)  returns 0x00 (0000ms, 0914ms total)
T0460 001:572 JLINK_WriteReg(R5, 0x00000000)  returns 0x00 (0000ms, 0914ms total)
T0460 001:572 JLINK_WriteReg(R6, 0x00000000)  returns 0x00 (0000ms, 0914ms total)
T0460 001:572 JLINK_WriteReg(R7, 0x00000000)  returns 0x00 (0000ms, 0914ms total)
T0460 001:572 JLINK_WriteReg(R8, 0x00000000)  returns 0x00 (0000ms, 0914ms total)
T0460 001:572 JLINK_WriteReg(R9, 0x10000168)  returns 0x00 (0000ms, 0914ms total)
T0460 001:573 JLINK_WriteReg(R10, 0x00000000)  returns 0x00 (0000ms, 0915ms total)
T0460 001:573 JLINK_WriteReg(R11, 0x00000000)  returns 0x00 (0000ms, 0915ms total)
T0460 001:573 JLINK_WriteReg(R12, 0x00000000)  returns 0x00 (0000ms, 0915ms total)
T0460 001:573 JLINK_WriteReg(R13 (SP), 0x10000800)  returns 0x00 (0000ms, 0915ms total)
T0460 001:573 JLINK_WriteReg(R14, 0x10000001)  returns 0x00 (0000ms, 0915ms total)
T0460 001:573 JLINK_WriteReg(R15 (PC), 0x10000020)  returns 0x00 (0000ms, 0915ms total)
T0460 001:573 JLINK_WriteReg(XPSR, 0x01000000)  returns 0x00 (0000ms, 0915ms total)
T0460 001:574 JLINK_WriteReg(MSP, 0x10000800)  returns 0x00 (0000ms, 0915ms total)
T0460 001:574 JLINK_WriteReg(PSP, 0x10000800)  returns 0x00 (0000ms, 0915ms total)
T0460 001:574 JLINK_WriteReg(CFBP, 0x00000000)  returns 0x00 (0000ms, 0915ms total)
T0460 001:574 JLINK_SetBPEx(Addr = 0x10000000, Type = 0xFFFFFFF2)  returns 0x00000006 (0000ms, 0915ms total)
T0460 001:574 JLINK_Go() (0006ms, 0921ms total)
T0460 001:580 JLINK_IsHalted()  returns TRUE (0006ms, 0927ms total)
T0460 001:586 JLINK_ReadReg(R15 (PC))  returns 0x10000000 (0000ms, 0921ms total)
T0460 001:586 JLINK_ClrBPEx(BPHandle = 0x00000006)  returns 0x00 (0000ms, 0921ms total)
T0460 001:586 JLINK_ReadReg(R0)  returns 0x00000001 (0000ms, 0921ms total)
T0460 001:586 JLINK_WriteReg(R0, 0x00002000)  returns 0x00 (0000ms, 0921ms total)
T0460 001:586 JLINK_WriteReg(R1, 0x00001000)  returns 0x00 (0000ms, 0921ms total)
T0460 001:586 JLINK_WriteReg(R2, 0x000000FF)  returns 0x00 (0001ms, 0922ms total)
T0460 001:587 JLINK_WriteReg(R3, 0x00000000)  returns 0x00 (0000ms, 0922ms total)
T0460 001:587 JLINK_WriteReg(R4, 0x00000000)  returns 0x00 (0000ms, 0922ms total)
T0460 001:587 JLINK_WriteReg(R5, 0x00000000)  returns 0x00 (0000ms, 0922ms total)
T0460 001:587 JLINK_WriteReg(R6, 0x00000000)  returns 0x00 (0000ms, 0922ms total)
T0460 001:587 JLINK_WriteReg(R7, 0x00000000)  returns 0x00 (0000ms, 0922ms total)
T0460 001:587 JLINK_WriteReg(R8, 0x00000000)  returns 0x00 (0000ms, 0922ms total)
T0460 001:587 JLINK_WriteReg(R9, 0x10000168)  returns 0x00 (0001ms, 0923ms total)
T0460 001:588 JLINK_WriteReg(R10, 0x00000000)  returns 0x00 (0000ms, 0923ms total)
T0460 001:588 JLINK_WriteReg(R11, 0x00000000)  returns 0x00 (0000ms, 0923ms total)
T0460 001:588 JLINK_WriteReg(R12, 0x00000000)  returns 0x00 (0000ms, 0923ms total)
T0460 001:588 JLINK_WriteReg(R13 (SP), 0x10000800)  returns 0x00 (0000ms, 0923ms total)
T0460 001:588 JLINK_WriteReg(R14, 0x10000001)  returns 0x00 (0000ms, 0923ms total)
T0460 001:588 JLINK_WriteReg(R15 (PC), 0x100000A4)  returns 0x00 (0000ms, 0923ms total)
T0460 001:588 JLINK_WriteReg(XPSR, 0x01000000)  returns 0x00 (0001ms, 0924ms total)
T0460 001:589 JLINK_WriteReg(MSP, 0x10000800)  returns 0x00 (0000ms, 0924ms total)
T0460 001:589 JLINK_WriteReg(PSP, 0x10000800)  returns 0x00 (0000ms, 0924ms total)
T0460 001:589 JLINK_WriteReg(CFBP, 0x00000000)  returns 0x00 (0000ms, 0924ms total)
T0460 001:589 JLINK_SetBPEx(Addr = 0x10000000, Type = 0xFFFFFFF2)  returns 0x00000007 (0000ms, 0924ms total)
T0460 001:589 JLINK_Go() (0005ms, 0929ms total)
T0460 001:594 JLINK_IsHalted()  returns FALSE (0002ms, 0931ms total)
T0460 001:615 JLINK_IsHalted()  returns FALSE (0006ms, 0935ms total)
T0460 001:630 JLINK_IsHalted()  returns FALSE (0003ms, 0932ms total)
T0460 001:649 JLINK_IsHalted()  returns FALSE (0002ms, 0931ms total)
T0460 001:653 JLINK_IsHalted()  returns FALSE (0002ms, 0931ms total)
T0460 001:663 JLINK_IsHalted()  returns FALSE (0002ms, 0931ms total)
T0460 001:674 JLINK_IsHalted()  returns FALSE (0002ms, 0931ms total)
T0460 001:678 JLINK_IsHalted()  returns FALSE (0002ms, 0931ms total)
T0460 001:693 JLINK_IsHalted()  returns TRUE (0007ms, 0936ms total)
T0460 001:700 JLINK_ReadReg(R15 (PC))  returns 0x10000000 (0000ms, 0929ms total)
T0460 001:700 JLINK_ClrBPEx(BPHandle = 0x00000007)  returns 0x00 (0000ms, 0929ms total)
T0460 001:700 JLINK_ReadReg(R0)  returns 0x00000000 (0000ms, 0929ms total)
T0460 001:701 JLINK_WriteReg(R0, 0x00003000)  returns 0x00 (0000ms, 0929ms total)
T0460 001:701 JLINK_WriteReg(R1, 0x00001000)  returns 0x00 (0000ms, 0929ms total)
T0460 001:701 JLINK_WriteReg(R2, 0x000000FF)  returns 0x00 (0001ms, 0930ms total)
T0460 001:702 JLINK_WriteReg(R3, 0x00000000)  returns 0x00 (0000ms, 0930ms total)
T0460 001:702 JLINK_WriteReg(R4, 0x00000000)  returns 0x00 (0000ms, 0930ms total)
T0460 001:702 JLINK_WriteReg(R5, 0x00000000)  returns 0x00 (0000ms, 0930ms total)
T0460 001:702 JLINK_WriteReg(R6, 0x00000000)  returns 0x00 (0000ms, 0930ms total)
T0460 001:702 JLINK_WriteReg(R7, 0x00000000)  returns 0x00 (0000ms, 0930ms total)
T0460 001:702 JLINK_WriteReg(R8, 0x00000000)  returns 0x00 (0000ms, 0930ms total)
T0460 001:702 JLINK_WriteReg(R9, 0x10000168)  returns 0x00 (0001ms, 0931ms total)
T0460 001:703 JLINK_WriteReg(R10, 0x00000000)  returns 0x00 (0000ms, 0931ms total)
T0460 001:703 JLINK_WriteReg(R11, 0x00000000)  returns 0x00 (0000ms, 0931ms total)
T0460 001:703 JLINK_WriteReg(R12, 0x00000000)  returns 0x00 (0000ms, 0931ms total)
T0460 001:703 JLINK_WriteReg(R13 (SP), 0x10000800)  returns 0x00 (0000ms, 0931ms total)
T0460 001:703 JLINK_WriteReg(R14, 0x10000001)  returns 0x00 (0000ms, 0931ms total)
T0460 001:703 JLINK_WriteReg(R15 (PC), 0x10000020)  returns 0x00 (0000ms, 0931ms total)
T0460 001:703 JLINK_WriteReg(XPSR, 0x01000000)  returns 0x00 (0001ms, 0932ms total)
T0460 001:704 JLINK_WriteReg(MSP, 0x10000800)  returns 0x00 (0000ms, 0932ms total)
T0460 001:704 JLINK_WriteReg(PSP, 0x10000800)  returns 0x00 (0000ms, 0932ms total)
T0460 001:704 JLINK_WriteReg(CFBP, 0x00000000)  returns 0x00 (0000ms, 0932ms total)
T0460 001:704 JLINK_SetBPEx(Addr = 0x10000000, Type = 0xFFFFFFF2)  returns 0x00000008 (0000ms, 0932ms total)
T0460 001:704 JLINK_Go() (0006ms, 0938ms total)
T0460 001:710 JLINK_IsHalted()  returns TRUE (0006ms, 0944ms total)
T0460 001:716 JLINK_ReadReg(R15 (PC))  returns 0x10000000 (0000ms, 0938ms total)
T0460 001:716 JLINK_ClrBPEx(BPHandle = 0x00000008)  returns 0x00 (0000ms, 0938ms total)
T0460 001:716 JLINK_ReadReg(R0)  returns 0x00000001 (0000ms, 0938ms total)
T0460 001:716 JLINK_WriteReg(R0, 0x00003000)  returns 0x00 (0000ms, 0938ms total)
T0460 001:716 JLINK_WriteReg(R1, 0x00001000)  returns 0x00 (0001ms, 0939ms total)
T0460 001:717 JLINK_WriteReg(R2, 0x000000FF)  returns 0x00 (0000ms, 0939ms total)
T0460 001:717 JLINK_WriteReg(R3, 0x00000000)  returns 0x00 (0000ms, 0939ms total)
T0460 001:717 JLINK_WriteReg(R4, 0x00000000)  returns 0x00 (0000ms, 0939ms total)
T0460 001:717 JLINK_WriteReg(R5, 0x00000000)  returns 0x00 (0000ms, 0939ms total)
T0460 001:717 JLINK_WriteReg(R6, 0x00000000)  returns 0x00 (0000ms, 0939ms total)
T0460 001:717 JLINK_WriteReg(R7, 0x00000000)  returns 0x00 (0000ms, 0939ms total)
T0460 001:717 JLINK_WriteReg(R8, 0x00000000)  returns 0x00 (0001ms, 0940ms total)
T0460 001:718 JLINK_WriteReg(R9, 0x10000168)  returns 0x00 (0000ms, 0940ms total)
T0460 001:718 JLINK_WriteReg(R10, 0x00000000)  returns 0x00 (0000ms, 0940ms total)
T0460 001:718 JLINK_WriteReg(R11, 0x00000000)  returns 0x00 (0000ms, 0940ms total)
T0460 001:718 JLINK_WriteReg(R12, 0x00000000)  returns 0x00 (0000ms, 0940ms total)
T0460 001:718 JLINK_WriteReg(R13 (SP), 0x10000800)  returns 0x00 (0001ms, 0941ms total)
T0460 001:719 JLINK_WriteReg(R14, 0x10000001)  returns 0x00 (0000ms, 0941ms total)
T0460 001:719 JLINK_WriteReg(R15 (PC), 0x100000A4)  returns 0x00 (0000ms, 0941ms total)
T0460 001:719 JLINK_WriteReg(XPSR, 0x01000000)  returns 0x00 (0000ms, 0941ms total)
T0460 001:719 JLINK_WriteReg(MSP, 0x10000800)  returns 0x00 (0000ms, 0941ms total)
T0460 001:719 JLINK_WriteReg(PSP, 0x10000800)  returns 0x00 (0000ms, 0941ms total)
T0460 001:719 JLINK_WriteReg(CFBP, 0x00000000)  returns 0x00 (0000ms, 0941ms total)
T0460 001:719 JLINK_SetBPEx(Addr = 0x10000000, Type = 0xFFFFFFF2)  returns 0x00000009 (0001ms, 0942ms total)
T0460 001:720 JLINK_Go() (0004ms, 0946ms total)
T0460 001:724 JLINK_IsHalted()  returns FALSE (0003ms, 0949ms total)
T0460 001:736 JLINK_IsHalted()  returns FALSE (0002ms, 0948ms total)
T0460 001:739 JLINK_IsHalted()  returns FALSE (0003ms, 0949ms total)
T0460 001:754 JLINK_IsHalted()  returns FALSE (0002ms, 0948ms total)
T0460 001:758 JLINK_IsHalted()  returns FALSE (0002ms, 0948ms total)
T0460 001:783 JLINK_IsHalted()  returns FALSE (0002ms, 0948ms total)
T0460 001:788 JLINK_IsHalted()  returns FALSE (0003ms, 0949ms total)
T0460 001:800 JLINK_IsHalted()  returns FALSE (0002ms, 0948ms total)
T0460 001:804 JLINK_IsHalted()  returns FALSE (0003ms, 0949ms total)
T0460 001:809 JLINK_IsHalted()  returns FALSE (0003ms, 0949ms total)
T0460 001:814 JLINK_IsHalted()  returns FALSE (0002ms, 0948ms total)
T0460 001:818 JLINK_IsHalted()  returns FALSE (0002ms, 0948ms total)
T0460 001:822 JLINK_IsHalted()  returns FALSE (0001ms, 0947ms total)
T0460 001:825 JLINK_IsHalted()  returns TRUE (0007ms, 0953ms total)
T0460 001:832 JLINK_ReadReg(R15 (PC))  returns 0x10000000 (0000ms, 0946ms total)
T0460 001:832 JLINK_ClrBPEx(BPHandle = 0x00000009)  returns 0x00 (0000ms, 0946ms total)
T0460 001:832 JLINK_ReadReg(R0)  returns 0x00000000 (0000ms, 0946ms total)
T0460 001:834 JLINK_WriteReg(R0, 0x00004000)  returns 0x00 (0001ms, 0947ms total)
T0460 001:835 JLINK_WriteReg(R1, 0x00001000)  returns 0x00 (0000ms, 0947ms total)
T0460 001:835 JLINK_WriteReg(R2, 0x000000FF)  returns 0x00 (0000ms, 0947ms total)
T0460 001:835 JLINK_WriteReg(R3, 0x00000000)  returns 0x00 (0000ms, 0947ms total)
T0460 001:835 JLINK_WriteReg(R4, 0x00000000)  returns 0x00 (0000ms, 0947ms total)
T0460 001:835 JLINK_WriteReg(R5, 0x00000000)  returns 0x00 (0000ms, 0947ms total)
T0460 001:836 JLINK_WriteReg(R6, 0x00000000)  returns 0x00 (0000ms, 0948ms total)
T0460 001:836 JLINK_WriteReg(R7, 0x00000000)  returns 0x00 (0000ms, 0948ms total)
T0460 001:836 JLINK_WriteReg(R8, 0x00000000)  returns 0x00 (0000ms, 0948ms total)
T0460 001:836 JLINK_WriteReg(R9, 0x10000168)  returns 0x00 (0000ms, 0948ms total)
T0460 001:836 JLINK_WriteReg(R10, 0x00000000)  returns 0x00 (0000ms, 0948ms total)
T0460 001:836 JLINK_WriteReg(R11, 0x00000000)  returns 0x00 (0000ms, 0948ms total)
T0460 001:837 JLINK_WriteReg(R12, 0x00000000)  returns 0x00 (0000ms, 0949ms total)
T0460 001:837 JLINK_WriteReg(R13 (SP), 0x10000800)  returns 0x00 (0000ms, 0949ms total)
T0460 001:837 JLINK_WriteReg(R14, 0x10000001)  returns 0x00 (0000ms, 0949ms total)
T0460 001:837 JLINK_WriteReg(R15 (PC), 0x10000020)  returns 0x00 (0000ms, 0949ms total)
T0460 001:837 JLINK_WriteReg(XPSR, 0x01000000)  returns 0x00 (0000ms, 0949ms total)
T0460 001:837 JLINK_WriteReg(MSP, 0x10000800)  returns 0x00 (0001ms, 0950ms total)
T0460 001:838 JLINK_WriteReg(PSP, 0x10000800)  returns 0x00 (0000ms, 0950ms total)
T0460 001:838 JLINK_WriteReg(CFBP, 0x00000000)  returns 0x00 (0000ms, 0950ms total)
T0460 001:838 JLINK_SetBPEx(Addr = 0x10000000, Type = 0xFFFFFFF2)  returns 0x0000000A (0000ms, 0950ms total)
T0460 001:838 JLINK_Go() (0007ms, 0957ms total)
T0460 001:845 JLINK_IsHalted()  returns TRUE (0006ms, 0963ms total)
T0460 001:851 JLINK_ReadReg(R15 (PC))  returns 0x10000000 (0000ms, 0957ms total)
T0460 001:851 JLINK_ClrBPEx(BPHandle = 0x0000000A)  returns 0x00 (0000ms, 0957ms total)
T0460 001:851 JLINK_ReadReg(R0)  returns 0x00000001 (0001ms, 0958ms total)
T0460 001:852 JLINK_WriteReg(R0, 0x00004000)  returns 0x00 (0000ms, 0958ms total)
T0460 001:852 JLINK_WriteReg(R1, 0x00001000)  returns 0x00 (0000ms, 0958ms total)
T0460 001:852 JLINK_WriteReg(R2, 0x000000FF)  returns 0x00 (0000ms, 0958ms total)
T0460 001:852 JLINK_WriteReg(R3, 0x00000000)  returns 0x00 (0000ms, 0958ms total)
T0460 001:852 JLINK_WriteReg(R4, 0x00000000)  returns 0x00 (0000ms, 0958ms total)
T0460 001:852 JLINK_WriteReg(R5, 0x00000000)  returns 0x00 (0001ms, 0959ms total)
T0460 001:853 JLINK_WriteReg(R6, 0x00000000)  returns 0x00 (0000ms, 0959ms total)
T0460 001:853 JLINK_WriteReg(R7, 0x00000000)  returns 0x00 (0000ms, 0959ms total)
T0460 001:853 JLINK_WriteReg(R8, 0x00000000)  returns 0x00 (0000ms, 0959ms total)
T0460 001:853 JLINK_WriteReg(R9, 0x10000168)  returns 0x00 (0000ms, 0959ms total)
T0460 001:853 JLINK_WriteReg(R10, 0x00000000)  returns 0x00 (0000ms, 0959ms total)
T0460 001:853 JLINK_WriteReg(R11, 0x00000000)  returns 0x00 (0000ms, 0959ms total)
T0460 001:853 JLINK_WriteReg(R12, 0x00000000)  returns 0x00 (0001ms, 0960ms total)
T0460 001:854 JLINK_WriteReg(R13 (SP), 0x10000800)  returns 0x00 (0000ms, 0960ms total)
T0460 001:854 JLINK_WriteReg(R14, 0x10000001)  returns 0x00 (0000ms, 0960ms total)
T0460 001:854 JLINK_WriteReg(R15 (PC), 0x100000A4)  returns 0x00 (0000ms, 0960ms total)
T0460 001:854 JLINK_WriteReg(XPSR, 0x01000000)  returns 0x00 (0000ms, 0960ms total)
T0460 001:854 JLINK_WriteReg(MSP, 0x10000800)  returns 0x00 (0000ms, 0960ms total)
T0460 001:854 JLINK_WriteReg(PSP, 0x10000800)  returns 0x00 (0000ms, 0960ms total)
T0460 001:854 JLINK_WriteReg(CFBP, 0x00000000)  returns 0x00 (0001ms, 0961ms total)
T0460 001:855 JLINK_SetBPEx(Addr = 0x10000000, Type = 0xFFFFFFF2)  returns 0x0000000B (0000ms, 0961ms total)
T0460 001:855 JLINK_Go() (0005ms, 0966ms total)
T0460 001:860 JLINK_IsHalted()  returns FALSE (0003ms, 0969ms total)
T0460 001:924 JLINK_IsHalted()  returns FALSE (0002ms, 0968ms total)
T0460 001:928 JLINK_IsHalted()  returns FALSE (0004ms, 0970ms total)
T0460 001:934 JLINK_IsHalted()  returns FALSE (0003ms, 0969ms total)
T0460 001:939 JLINK_IsHalted()  returns FALSE (0002ms, 0968ms total)
T0460 001:943 JLINK_IsHalted()  returns FALSE (0002ms, 0968ms total)
T0460 001:954 JLINK_IsHalted()  returns FALSE (0002ms, 0968ms total)
T0460 001:958 JLINK_IsHalted()  returns TRUE (0007ms, 0973ms total)
T0460 001:965 JLINK_ReadReg(R15 (PC))  returns 0x10000000 (0000ms, 0966ms total)
T0460 001:965 JLINK_ClrBPEx(BPHandle = 0x0000000B)  returns 0x00 (0000ms, 0966ms total)
T0460 001:965 JLINK_ReadReg(R0)  returns 0x00000000 (0000ms, 0966ms total)
T0460 001:966 JLINK_WriteReg(R0, 0x00005000)  returns 0x00 (0001ms, 0967ms total)
T0460 001:967 JLINK_WriteReg(R1, 0x00001000)  returns 0x00 (0000ms, 0967ms total)
T0460 001:967 JLINK_WriteReg(R2, 0x000000FF)  returns 0x00 (0000ms, 0967ms total)
T0460 001:967 JLINK_WriteReg(R3, 0x00000000)  returns 0x00 (0000ms, 0967ms total)
T0460 001:967 JLINK_WriteReg(R4, 0x00000000)  returns 0x00 (0000ms, 0967ms total)
T0460 001:967 JLINK_WriteReg(R5, 0x00000000)  returns 0x00 (0000ms, 0967ms total)
T0460 001:967 JLINK_WriteReg(R6, 0x00000000)  returns 0x00 (0000ms, 0967ms total)
T0460 001:967 JLINK_WriteReg(R7, 0x00000000)  returns 0x00 (0001ms, 0968ms total)
T0460 001:968 JLINK_WriteReg(R8, 0x00000000)  returns 0x00 (0000ms, 0968ms total)
T0460 001:968 JLINK_WriteReg(R9, 0x10000168)  returns 0x00 (0000ms, 0968ms total)
T0460 001:968 JLINK_WriteReg(R10, 0x00000000)  returns 0x00 (0000ms, 0968ms total)
T0460 001:968 JLINK_WriteReg(R11, 0x00000000)  returns 0x00 (0000ms, 0968ms total)
T0460 001:968 JLINK_WriteReg(R12, 0x00000000)  returns 0x00 (0000ms, 0968ms total)
T0460 001:968 JLINK_WriteReg(R13 (SP), 0x10000800)  returns 0x00 (0000ms, 0968ms total)
T0460 001:968 JLINK_WriteReg(R14, 0x10000001)  returns 0x00 (0001ms, 0969ms total)
T0460 001:969 JLINK_WriteReg(R15 (PC), 0x10000020)  returns 0x00 (0000ms, 0969ms total)
T0460 001:969 JLINK_WriteReg(XPSR, 0x01000000)  returns 0x00 (0000ms, 0969ms total)
T0460 001:969 JLINK_WriteReg(MSP, 0x10000800)  returns 0x00 (0000ms, 0969ms total)
T0460 001:969 JLINK_WriteReg(PSP, 0x10000800)  returns 0x00 (0000ms, 0969ms total)
T0460 001:969 JLINK_WriteReg(CFBP, 0x00000000)  returns 0x00 (0000ms, 0969ms total)
T0460 001:969 JLINK_SetBPEx(Addr = 0x10000000, Type = 0xFFFFFFF2)  returns 0x0000000C (0000ms, 0969ms total)
T0460 001:969 JLINK_Go() (0006ms, 0975ms total)
T0460 001:975 JLINK_IsHalted()  returns TRUE (0007ms, 0982ms total)
T0460 001:982 JLINK_ReadReg(R15 (PC))  returns 0x10000000 (0000ms, 0975ms total)
T0460 001:982 JLINK_ClrBPEx(BPHandle = 0x0000000C)  returns 0x00 (0001ms, 0976ms total)
T0460 001:983 JLINK_ReadReg(R0)  returns 0x00000001 (0000ms, 0976ms total)
T0460 001:983 JLINK_WriteReg(R0, 0x00005000)  returns 0x00 (0000ms, 0976ms total)
T0460 001:983 JLINK_WriteReg(R1, 0x00001000)  returns 0x00 (0000ms, 0976ms total)
T0460 001:983 JLINK_WriteReg(R2, 0x000000FF)  returns 0x00 (0000ms, 0976ms total)
T0460 001:983 JLINK_WriteReg(R3, 0x00000000)  returns 0x00 (0000ms, 0976ms total)
T0460 001:983 JLINK_WriteReg(R4, 0x00000000)  returns 0x00 (0000ms, 0976ms total)
T0460 001:983 JLINK_WriteReg(R5, 0x00000000)  returns 0x00 (0001ms, 0977ms total)
T0460 001:984 JLINK_WriteReg(R6, 0x00000000)  returns 0x00 (0000ms, 0977ms total)
T0460 001:984 JLINK_WriteReg(R7, 0x00000000)  returns 0x00 (0000ms, 0977ms total)
T0460 001:984 JLINK_WriteReg(R8, 0x00000000)  returns 0x00 (0000ms, 0977ms total)
T0460 001:984 JLINK_WriteReg(R9, 0x10000168)  returns 0x00 (0000ms, 0977ms total)
T0460 001:984 JLINK_WriteReg(R10, 0x00000000)  returns 0x00 (0000ms, 0977ms total)
T0460 001:984 JLINK_WriteReg(R11, 0x00000000)  returns 0x00 (0000ms, 0977ms total)
T0460 001:984 JLINK_WriteReg(R12, 0x00000000)  returns 0x00 (0001ms, 0978ms total)
T0460 001:985 JLINK_WriteReg(R13 (SP), 0x10000800)  returns 0x00 (0000ms, 0978ms total)
T0460 001:985 JLINK_WriteReg(R14, 0x10000001)  returns 0x00 (0000ms, 0978ms total)
T0460 001:985 JLINK_WriteReg(R15 (PC), 0x100000A4)  returns 0x00 (0000ms, 0978ms total)
T0460 001:985 JLINK_WriteReg(XPSR, 0x01000000)  returns 0x00 (0000ms, 0978ms total)
T0460 001:985 JLINK_WriteReg(MSP, 0x10000800)  returns 0x00 (0000ms, 0978ms total)
T0460 001:985 JLINK_WriteReg(PSP, 0x10000800)  returns 0x00 (0000ms, 0978ms total)
T0460 001:985 JLINK_WriteReg(CFBP, 0x00000000)  returns 0x00 (0001ms, 0979ms total)
T0460 001:986 JLINK_SetBPEx(Addr = 0x10000000, Type = 0xFFFFFFF2)  returns 0x0000000D (0000ms, 0979ms total)
T0460 001:986 JLINK_Go() (0003ms, 0982ms total)
T0460 001:989 JLINK_IsHalted()  returns FALSE (0004ms, 0986ms total)
T0460 002:030 JLINK_IsHalted()  returns FALSE (0001ms, 0983ms total)
T0460 002:047 JLINK_IsHalted()  returns FALSE (0002ms, 0984ms total)
T0460 002:051 JLINK_IsHalted()  returns FALSE (0002ms, 0984ms total)
T0460 002:055 JLINK_IsHalted()  returns FALSE (0003ms, 0985ms total)
T0460 002:069 JLINK_IsHalted()  returns FALSE (0002ms, 0984ms total)
T0460 002:081 JLINK_IsHalted()  returns FALSE (0006ms, 0988ms total)
T0460 002:089 JLINK_IsHalted()  returns TRUE (0006ms, 0988ms total)
T0460 002:095 JLINK_ReadReg(R15 (PC))  returns 0x10000000 (0000ms, 0982ms total)
T0460 002:095 JLINK_ClrBPEx(BPHandle = 0x0000000D)  returns 0x00 (0000ms, 0982ms total)
T0460 002:095 JLINK_ReadReg(R0)  returns 0x00000000 (0000ms, 0982ms total)
T0460 002:097 JLINK_WriteReg(R0, 0x00006000)  returns 0x00 (0000ms, 0982ms total)
T0460 002:097 JLINK_WriteReg(R1, 0x00001000)  returns 0x00 (0000ms, 0982ms total)
T0460 002:097 JLINK_WriteReg(R2, 0x000000FF)  returns 0x00 (0000ms, 0982ms total)
T0460 002:097 JLINK_WriteReg(R3, 0x00000000)  returns 0x00 (0000ms, 0982ms total)
T0460 002:097 JLINK_WriteReg(R4, 0x00000000)  returns 0x00 (0000ms, 0982ms total)
T0460 002:097 JLINK_WriteReg(R5, 0x00000000)  returns 0x00 (0001ms, 0983ms total)
T0460 002:098 JLINK_WriteReg(R6, 0x00000000)  returns 0x00 (0000ms, 0983ms total)
T0460 002:098 JLINK_WriteReg(R7, 0x00000000)  returns 0x00 (0000ms, 0983ms total)
T0460 002:098 JLINK_WriteReg(R8, 0x00000000)  returns 0x00 (0000ms, 0983ms total)
T0460 002:098 JLINK_WriteReg(R9, 0x10000168)  returns 0x00 (0000ms, 0983ms total)
T0460 002:098 JLINK_WriteReg(R10, 0x00000000)  returns 0x00 (0000ms, 0983ms total)
T0460 002:098 JLINK_WriteReg(R11, 0x00000000)  returns 0x00 (0000ms, 0983ms total)
T0460 002:098 JLINK_WriteReg(R12, 0x00000000)  returns 0x00 (0001ms, 0984ms total)
T0460 002:099 JLINK_WriteReg(R13 (SP), 0x10000800)  returns 0x00 (0000ms, 0984ms total)
T0460 002:099 JLINK_WriteReg(R14, 0x10000001)  returns 0x00 (0000ms, 0984ms total)
T0460 002:099 JLINK_WriteReg(R15 (PC), 0x10000020)  returns 0x00 (0000ms, 0984ms total)
T0460 002:099 JLINK_WriteReg(XPSR, 0x01000000)  returns 0x00 (0000ms, 0984ms total)
T0460 002:099 JLINK_WriteReg(MSP, 0x10000800)  returns 0x00 (0000ms, 0984ms total)
T0460 002:099 JLINK_WriteReg(PSP, 0x10000800)  returns 0x00 (0000ms, 0984ms total)
T0460 002:099 JLINK_WriteReg(CFBP, 0x00000000)  returns 0x00 (0001ms, 0985ms total)
T0460 002:100 JLINK_SetBPEx(Addr = 0x10000000, Type = 0xFFFFFFF2)  returns 0x0000000E (0000ms, 0985ms total)
T0460 002:100 JLINK_Go() (0007ms, 0992ms total)
T0460 002:107 JLINK_IsHalted()  returns TRUE (0007ms, 0999ms total)
T0460 002:114 JLINK_ReadReg(R15 (PC))  returns 0x10000000 (0000ms, 0992ms total)
T0460 002:114 JLINK_ClrBPEx(BPHandle = 0x0000000E)  returns 0x00 (0000ms, 0992ms total)
T0460 002:114 JLINK_ReadReg(R0)  returns 0x00000001 (0000ms, 0992ms total)
T0460 002:114 JLINK_WriteReg(R0, 0x00006000)  returns 0x00 (0000ms, 0992ms total)
T0460 002:114 JLINK_WriteReg(R1, 0x00001000)  returns 0x00 (0000ms, 0992ms total)
T0460 002:114 JLINK_WriteReg(R2, 0x000000FF)  returns 0x00 (0000ms, 0992ms total)
T0460 002:114 JLINK_WriteReg(R3, 0x00000000)  returns 0x00 (0000ms, 0992ms total)
T0460 002:114 JLINK_WriteReg(R4, 0x00000000)  returns 0x00 (0001ms, 0993ms total)
T0460 002:115 JLINK_WriteReg(R5, 0x00000000)  returns 0x00 (0000ms, 0993ms total)
T0460 002:115 JLINK_WriteReg(R6, 0x00000000)  returns 0x00 (0000ms, 0993ms total)
T0460 002:115 JLINK_WriteReg(R7, 0x00000000)  returns 0x00 (0000ms, 0993ms total)
T0460 002:115 JLINK_WriteReg(R8, 0x00000000)  returns 0x00 (0000ms, 0993ms total)
T0460 002:115 JLINK_WriteReg(R9, 0x10000168)  returns 0x00 (0000ms, 0993ms total)
T0460 002:115 JLINK_WriteReg(R10, 0x00000000)  returns 0x00 (0000ms, 0993ms total)
T0460 002:115 JLINK_WriteReg(R11, 0x00000000)  returns 0x00 (0001ms, 0994ms total)
T0460 002:116 JLINK_WriteReg(R12, 0x00000000)  returns 0x00 (0000ms, 0994ms total)
T0460 002:116 JLINK_WriteReg(R13 (SP), 0x10000800)  returns 0x00 (0000ms, 0994ms total)
T0460 002:116 JLINK_WriteReg(R14, 0x10000001)  returns 0x00 (0000ms, 0994ms total)
T0460 002:116 JLINK_WriteReg(R15 (PC), 0x100000A4)  returns 0x00 (0000ms, 0994ms total)
T0460 002:116 JLINK_WriteReg(XPSR, 0x01000000)  returns 0x00 (0000ms, 0994ms total)
T0460 002:116 JLINK_WriteReg(MSP, 0x10000800)  returns 0x00 (0000ms, 0994ms total)
T0460 002:116 JLINK_WriteReg(PSP, 0x10000800)  returns 0x00 (0000ms, 0994ms total)
T0460 002:117 JLINK_WriteReg(CFBP, 0x00000000)  returns 0x00 (0000ms, 0995ms total)
T0460 002:117 JLINK_SetBPEx(Addr = 0x10000000, Type = 0xFFFFFFF2)  returns 0x0000000F (0000ms, 0995ms total)
T0460 002:117 JLINK_Go() (0008ms, 1003ms total)
T0460 002:125 JLINK_IsHalted()  returns FALSE (0003ms, 1006ms total)
T0460 002:227 JLINK_IsHalted()  returns TRUE (0006ms, 1009ms total)
T0460 002:233 JLINK_ReadReg(R15 (PC))  returns 0x10000000 (0000ms, 1003ms total)
T0460 002:233 JLINK_ClrBPEx(BPHandle = 0x0000000F)  returns 0x00 (0001ms, 1004ms total)
T0460 002:234 JLINK_ReadReg(R0)  returns 0x00000000 (0000ms, 1004ms total)
T0460 002:235 JLINK_WriteReg(R0, 0x00007000)  returns 0x00 (0000ms, 1004ms total)
T0460 002:235 JLINK_WriteReg(R1, 0x00001000)  returns 0x00 (0000ms, 1004ms total)
T0460 002:235 JLINK_WriteReg(R2, 0x000000FF)  returns 0x00 (0000ms, 1004ms total)
T0460 002:235 JLINK_WriteReg(R3, 0x00000000)  returns 0x00 (0001ms, 1005ms total)
T0460 002:236 JLINK_WriteReg(R4, 0x00000000)  returns 0x00 (0000ms, 1005ms total)
T0460 002:236 JLINK_WriteReg(R5, 0x00000000)  returns 0x00 (0000ms, 1005ms total)
T0460 002:236 JLINK_WriteReg(R6, 0x00000000)  returns 0x00 (0000ms, 1005ms total)
T0460 002:236 JLINK_WriteReg(R7, 0x00000000)  returns 0x00 (0000ms, 1005ms total)
T0460 002:236 JLINK_WriteReg(R8, 0x00000000)  returns 0x00 (0000ms, 1005ms total)
T0460 002:236 JLINK_WriteReg(R9, 0x10000168)  returns 0x00 (0000ms, 1005ms total)
T0460 002:236 JLINK_WriteReg(R10, 0x00000000)  returns 0x00 (0000ms, 1005ms total)
T0460 002:237 JLINK_WriteReg(R11, 0x00000000)  returns 0x00 (0000ms, 1006ms total)
T0460 002:237 JLINK_WriteReg(R12, 0x00000000)  returns 0x00 (0000ms, 1006ms total)
T0460 002:237 JLINK_WriteReg(R13 (SP), 0x10000800)  returns 0x00 (0000ms, 1006ms total)
T0460 002:237 JLINK_WriteReg(R14, 0x10000001)  returns 0x00 (0000ms, 1006ms total)
T0460 002:237 JLINK_WriteReg(R15 (PC), 0x10000020)  returns 0x00 (0000ms, 1006ms total)
T0460 002:237 JLINK_WriteReg(XPSR, 0x01000000)  returns 0x00 (0000ms, 1006ms total)
T0460 002:237 JLINK_WriteReg(MSP, 0x10000800)  returns 0x00 (0001ms, 1007ms total)
T0460 002:238 JLINK_WriteReg(PSP, 0x10000800)  returns 0x00 (0000ms, 1007ms total)
T0460 002:238 JLINK_WriteReg(CFBP, 0x00000000)  returns 0x00 (0000ms, 1007ms total)
T0460 002:238 JLINK_SetBPEx(Addr = 0x10000000, Type = 0xFFFFFFF2)  returns 0x00000010 (0000ms, 1007ms total)
T0460 002:238 JLINK_Go() (0005ms, 1012ms total)
T0460 002:244 JLINK_IsHalted()  returns TRUE (0007ms, 1020ms total)
T0460 002:251 JLINK_ReadReg(R15 (PC))  returns 0x10000000 (0000ms, 1013ms total)
T0460 002:251 JLINK_ClrBPEx(BPHandle = 0x00000010)  returns 0x00 (0000ms, 1013ms total)
T0460 002:251 JLINK_ReadReg(R0)  returns 0x00000001 (0000ms, 1013ms total)
T0460 002:251 JLINK_WriteReg(R0, 0x00007000)  returns 0x00 (0000ms, 1013ms total)
T0460 002:251 JLINK_WriteReg(R1, 0x00001000)  returns 0x00 (0000ms, 1013ms total)
T0460 002:251 JLINK_WriteReg(R2, 0x000000FF)  returns 0x00 (0001ms, 1014ms total)
T0460 002:252 JLINK_WriteReg(R3, 0x00000000)  returns 0x00 (0000ms, 1014ms total)
T0460 002:252 JLINK_WriteReg(R4, 0x00000000)  returns 0x00 (0000ms, 1014ms total)
T0460 002:252 JLINK_WriteReg(R5, 0x00000000)  returns 0x00 (0000ms, 1014ms total)
T0460 002:252 JLINK_WriteReg(R6, 0x00000000)  returns 0x00 (0000ms, 1014ms total)
T0460 002:252 JLINK_WriteReg(R7, 0x00000000)  returns 0x00 (0000ms, 1014ms total)
T0460 002:252 JLINK_WriteReg(R8, 0x00000000)  returns 0x00 (0000ms, 1014ms total)
T0460 002:252 JLINK_WriteReg(R9, 0x10000168)  returns 0x00 (0001ms, 1015ms total)
T0460 002:253 JLINK_WriteReg(R10, 0x00000000)  returns 0x00 (0000ms, 1015ms total)
T0460 002:253 JLINK_WriteReg(R11, 0x00000000)  returns 0x00 (0000ms, 1015ms total)
T0460 002:253 JLINK_WriteReg(R12, 0x00000000)  returns 0x00 (0000ms, 1015ms total)
T0460 002:253 JLINK_WriteReg(R13 (SP), 0x10000800)  returns 0x00 (0000ms, 1015ms total)
T0460 002:253 JLINK_WriteReg(R14, 0x10000001)  returns 0x00 (0000ms, 1015ms total)
T0460 002:253 JLINK_WriteReg(R15 (PC), 0x100000A4)  returns 0x00 (0000ms, 1015ms total)
T0460 002:253 JLINK_WriteReg(XPSR, 0x01000000)  returns 0x00 (0001ms, 1016ms total)
T0460 002:254 JLINK_WriteReg(MSP, 0x10000800)  returns 0x00 (0000ms, 1016ms total)
T0460 002:254 JLINK_WriteReg(PSP, 0x10000800)  returns 0x00 (0000ms, 1016ms total)
T0460 002:254 JLINK_WriteReg(CFBP, 0x00000000)  returns 0x00 (0000ms, 1016ms total)
T0460 002:254 JLINK_SetBPEx(Addr = 0x10000000, Type = 0xFFFFFFF2)  returns 0x00000011 (0000ms, 1016ms total)
T0460 002:254 JLINK_Go() (0005ms, 1021ms total)
T0460 002:259 JLINK_IsHalted()  returns FALSE (0002ms, 1023ms total)
T0460 002:270 JLINK_IsHalted()  returns FALSE (0002ms, 1023ms total)
T0460 002:274 JLINK_IsHalted()  returns FALSE (0002ms, 1023ms total)
T0460 002:287 JLINK_IsHalted()  returns FALSE (0003ms, 1024ms total)
T0460 002:299 JLINK_IsHalted()  returns FALSE (0002ms, 1023ms total)
T0460 002:303 JLINK_IsHalted()  returns FALSE (0002ms, 1023ms total)
T0460 002:333 JLINK_IsHalted()  returns FALSE (0002ms, 1023ms total)
T0460 002:337 JLINK_IsHalted()  returns FALSE (0002ms, 1023ms total)
T0460 002:348 JLINK_IsHalted()  returns FALSE (0002ms, 1023ms total)
T0460 002:352 JLINK_IsHalted()  returns FALSE (0002ms, 1023ms total)
T0460 002:356 JLINK_IsHalted()  returns FALSE (0002ms, 1023ms total)
T0460 002:360 JLINK_IsHalted()  returns TRUE (0005ms, 1026ms total)
T0460 002:366 JLINK_ReadReg(R15 (PC))  returns 0x10000000 (0000ms, 1021ms total)
T0460 002:366 JLINK_ClrBPEx(BPHandle = 0x00000011)  returns 0x00 (0000ms, 1021ms total)
T0460 002:366 JLINK_ReadReg(R0)  returns 0x00000000 (0001ms, 1022ms total)
T0460 002:368 JLINK_WriteReg(R0, 0x00000001)  returns 0x00 (0000ms, 1022ms total)
T0460 002:368 JLINK_WriteReg(R1, 0x00001000)  returns 0x00 (0000ms, 1022ms total)
T0460 002:368 JLINK_WriteReg(R2, 0x000000FF)  returns 0x00 (0000ms, 1022ms total)
T0460 002:368 JLINK_WriteReg(R3, 0x00000000)  returns 0x00 (0001ms, 1023ms total)
T0460 002:369 JLINK_WriteReg(R4, 0x00000000)  returns 0x00 (0000ms, 1023ms total)
T0460 002:369 JLINK_WriteReg(R5, 0x00000000)  returns 0x00 (0000ms, 1023ms total)
T0460 002:369 JLINK_WriteReg(R6, 0x00000000)  returns 0x00 (0000ms, 1023ms total)
T0460 002:369 JLINK_WriteReg(R7, 0x00000000)  returns 0x00 (0000ms, 1023ms total)
T0460 002:369 JLINK_WriteReg(R8, 0x00000000)  returns 0x00 (0001ms, 1024ms total)
T0460 002:370 JLINK_WriteReg(R9, 0x10000168)  returns 0x00 (0000ms, 1024ms total)
T0460 002:370 JLINK_WriteReg(R10, 0x00000000)  returns 0x00 (0000ms, 1024ms total)
T0460 002:370 JLINK_WriteReg(R11, 0x00000000)  returns 0x00 (0000ms, 1024ms total)
